T5970 000:008.899   SEGGER J-Link V8.16 Log File
T5970 000:009.031   DLL Compiled: Feb 26 2025 12:07:26
T5970 000:009.039   Logging started @ 2025-07-07 09:22
T5970 000:009.046   Process: C:\Keil_v542a\UV4\UV4.exe
T5970 000:009.060 - 9.053ms 
T5970 000:009.071 JLINK_SetWarnOutHandler(...)
T5970 000:009.078 - 0.008ms 
T5970 000:009.089 JLINK_OpenEx(...)
T5970 000:013.044   Firmware: J-Link V10 compiled Jan 30 2023 11:28:07
T5970 000:014.293   Firmware: J-Link V10 compiled Jan 30 2023 11:28:07
T5970 000:014.450   Decompressing FW timestamp took 115 us
T5970 000:016.455   Hardware: V10.10
T5970 000:016.478   S/N: 600115836
T5970 000:016.488   OEM: SEGGER
T5970 000:016.498   Feature(s): RDI, FlashBP, FlashDL, JFlash, GDB
T5970 000:017.884   Bootloader: (FW returned invalid version)
T5970 000:018.799   TELNET listener socket opened on port 19021
T5970 000:018.983   WEBSRV WEBSRV_Init(): Starting webserver thread(s)
T5970 000:019.222   WEBSRV Webserver running on local port 19080
T5970 000:019.372   Looking for J-Link GUI Server exe at: C:\Keil_v542a\ARM\Segger\JLinkGUIServer.exe
T5970 000:019.612   Looking for J-Link GUI Server exe at: C:\Program Files (x86)\SEGGER\JLink_686\JLinkGUIServer.exe
T5970 000:019.656   Forking J-Link GUI Server: C:\Program Files (x86)\SEGGER\JLink_686\JLinkGUIServer.exe
T5970 000:083.131   J-Link GUI Server info: "J-Link GUI server V6.86 "
T5970 000:083.267   J-Link GUI Server: Connection breakdown.
T5970 000:083.420 - 74.327ms returns "O.K."
T5970 000:083.441 JLINK_GetEmuCaps()
T5970 000:083.451 - 0.008ms returns 0xB9FF7BBF
T5970 000:083.462 JLINK_TIF_GetAvailable(...)
T5970 000:083.839 - 0.377ms 
T5970 000:083.874 JLINK_SetErrorOutHandler(...)
T5970 000:083.882 - 0.008ms 
T5970 000:083.915 JLINK_ExecCommand("ProjectFile = "C:\work\project\LYG\code\pas700s\rt-thread\bsp\imxrt\product\JLinkSettings.ini"", ...). 
T5970 000:097.476 - 13.563ms returns 0x00
T5970 000:101.574 JLINK_ExecCommand("Device = MIMXRT1171CVM8A", ...). 
T5970 000:102.574   Flash bank @ 0x30000000: SFL: Parsing sectorization info from ELF file
T5970 000:102.602     FlashDevice.SectorInfo[0]: .SectorSize = 0x00010000, .SectorStartAddr = 0x00000000
T5970 000:114.689   Flash bank @ 0x60000000: SFL: Parsing sectorization info from ELF file
T5970 000:114.719     FlashDevice.SectorInfo[0]: .SectorSize = 0x00010000, .SectorStartAddr = 0x00000000
T5970 000:141.996   Device "MIMXRT1171XXX8_M7" selected.
T5970 000:142.564 - 40.954ms returns 0x00
T5970 000:142.590 JLINK_ExecCommand("DisableConnectionTimeout", ...). 
T5970 000:142.610   ERROR: Unknown command
T5970 000:142.621 - 0.021ms returns 0x01
T5970 000:142.632 JLINK_GetHardwareVersion()
T5970 000:142.641 - 0.008ms returns 101000
T5970 000:142.649 JLINK_GetDLLVersion()
T5970 000:142.655 - 0.006ms returns 81600
T5970 000:142.726 JLINK_GetOEMString(...)
T5970 000:142.748 JLINK_GetFirmwareString(...)
T5970 000:142.754 - 0.006ms 
T5970 000:148.740 JLINK_GetDLLVersion()
T5970 000:148.765 - 0.024ms returns 81600
T5970 000:148.773 JLINK_GetCompileDateTime()
T5970 000:148.779 - 0.006ms 
T5970 000:150.632 JLINK_GetFirmwareString(...)
T5970 000:150.653 - 0.021ms 
T5970 000:153.513 JLINK_GetHardwareVersion()
T5970 000:153.559 - 0.045ms returns 101000
T5970 000:157.100 JLINK_GetSN()
T5970 000:157.136 - 0.035ms returns 600115836
T5970 000:160.690 JLINK_GetOEMString(...)
T5970 000:168.247 JLINK_TIF_Select(JLINKARM_TIF_SWD)
T5970 000:169.276 - 1.030ms returns 0x00
T5970 000:169.295 JLINK_HasError()
T5970 000:169.311 JLINK_SetSpeed(50000)
T5970 000:169.410 - 0.100ms 
T5970 000:169.420 JLINK_GetId()
T5970 000:172.544   Found SW-DP with ID 0x6BA02477
T5970 000:177.108   DPIDR: 0x6BA02477
T5970 000:179.287   CoreSight SoC-400 or earlier
T5970 000:181.313   Scanning AP map to find all available APs
T5970 000:183.833   AP[1]: Stopped AP scan as end of AP map has been reached
T5970 000:189.389   AP[0]: AHB-AP (IDR: 0x84770001, ADDR: 0x00000000)
T5970 000:193.413   Iterating through AP map to find AHB-AP to use
T5970 000:197.354   AP[0]: Core found
T5970 000:199.671   AP[0]: AHB-AP ROM base: 0xE00FD000
T5970 000:202.057   CPUID register: 0x411FC272. Implementer code: 0x41 (ARM)
T5970 000:204.304   Cache: L1 I/D-cache present
T5970 000:206.249   Found Cortex-M7 r1p2, Little endian.
T5970 000:206.655   -- Max. mem block: 0x00004598
T5970 000:207.277   CPU_ReadMem(4 bytes @ 0xE000EDF0)
T5970 000:207.542   CPU_WriteMem(4 bytes @ 0xE000EDF0)
T5970 000:207.800   CPU_ReadMem(4 bytes @ 0xE0002000)
T5970 000:210.095   FPUnit: 8 code (BP) slots and 0 literal slots
T5970 000:210.121   CPU_ReadMem(4 bytes @ 0xE000EDFC)
T5970 000:210.342   CPU_WriteMem(4 bytes @ 0xE000EDFC)
T5970 000:210.554   CPU_ReadMem(4 bytes @ 0xE0001000)
T5970 000:210.789   CPU_WriteMem(4 bytes @ 0xE0001000)
T5970 000:211.054   CPU_ReadMem(4 bytes @ 0xE000ED88)
T5970 000:211.297   CPU_WriteMem(4 bytes @ 0xE000ED88)
T5970 000:211.556   CPU_ReadMem(4 bytes @ 0xE000ED88)
T5970 000:211.790   CPU_WriteMem(4 bytes @ 0xE000ED88)
T5970 000:213.985   CoreSight components:
T5970 000:220.194   ROMTbl[0] @ E00FD000
T5970 000:220.238   CPU_ReadMem(64 bytes @ 0xE00FD000)
T5970 000:220.596   CPU_ReadMem(32 bytes @ 0xE00FEFE0)
T5970 000:224.004   [0][0]: E00FE000 CID B105100D PID 000BB4C8 ROM Table
T5970 000:226.227   ROMTbl[1] @ E00FE000
T5970 000:226.260   CPU_ReadMem(64 bytes @ 0xE00FE000)
T5970 000:226.661   CPU_ReadMem(32 bytes @ 0xE00FFFE0)
T5970 000:228.979   [1][0]: E00FF000 CID B105100D PID 000BB4C7 ROM Table
T5970 000:231.115   ROMTbl[2] @ E00FF000
T5970 000:231.150   CPU_ReadMem(64 bytes @ 0xE00FF000)
T5970 000:231.549   CPU_ReadMem(32 bytes @ 0xE000EFE0)
T5970 000:234.134   [2][0]: E000E000 CID B105E00D PID 000BB00C SCS-M7
T5970 000:234.169   CPU_ReadMem(32 bytes @ 0xE0001FE0)
T5970 000:236.562   [2][1]: E0001000 CID B105E00D PID 000BB002 DWT
T5970 000:236.593   CPU_ReadMem(32 bytes @ 0xE0002FE0)
T5970 000:238.919   [2][2]: E0002000 CID B105E00D PID 000BB00E FPB-M7
T5970 000:238.950   CPU_ReadMem(32 bytes @ 0xE0000FE0)
T5970 000:241.535   [2][3]: E0000000 CID B105E00D PID 000BB001 ITM
T5970 000:241.573   CPU_ReadMem(32 bytes @ 0xE0041FE0)
T5970 000:243.994   [1][1]: E0041000 CID B105900D PID 001BB975 ETM-M7
T5970 000:244.026   CPU_ReadMem(32 bytes @ 0xE0042FE0)
T5970 000:248.611   [1][2]: E0042000 CID B105900D PID 004BB906 CTI
T5970 000:248.665   CPU_ReadMem(32 bytes @ 0xE0043FE0)
T5970 000:254.804   [0][1]: E0043000 CID B105900D PID 001BB908 CSTF
T5970 000:254.856   CPU_WriteMem(4 bytes @ 0xE000ED84)
T5970 000:255.188   CPU_ReadMem(4 bytes @ 0xE000ED80)
T5970 000:258.432   I-Cache L1: 32 KB, 512 Sets, 32 Bytes/Line, 2-Way
T5970 000:258.482   CPU_WriteMem(4 bytes @ 0xE000ED84)
T5970 000:258.733   CPU_ReadMem(4 bytes @ 0xE000ED80)
T5970 000:261.164   D-Cache L1: 32 KB, 256 Sets, 32 Bytes/Line, 4-Way
T5970 000:261.419 - 91.998ms returns 0x6BA02477
T5970 000:261.441 JLINK_GetDLLVersion()
T5970 000:261.449 - 0.008ms returns 81600
T5970 000:261.501 JLINK_CORE_GetFound()
T5970 000:261.510 - 0.009ms returns 0xE0100FF
T5970 000:261.518 JLINK_GetDebugInfo(0x100 = JLINKARM_ROM_TABLE_ADDR_INDEX)
T5970 000:261.527   Value=0xE00FD000
T5970 000:261.538 - 0.020ms returns 0
T5970 000:263.592 JLINK_GetDebugInfo(0x100 = JLINKARM_ROM_TABLE_ADDR_INDEX)
T5970 000:263.613   Value=0xE00FD000
T5970 000:263.624 - 0.032ms returns 0
T5970 000:263.632 JLINK_GetDebugInfo(0x101 = JLINKARM_DEBUG_INFO_ETM_ADDR_INDEX)
T5970 000:263.639   Value=0xE0041000
T5970 000:263.649 - 0.017ms returns 0
T5970 000:263.658 JLINK_ReadMemEx(0xE0041FD0, 0x20 Bytes, Flags = 0x02000004)
T5970 000:263.691   CPU_ReadMem(32 bytes @ 0xE0041FD0)
T5970 000:264.022   Data:  04 00 00 00 00 00 00 00 00 00 00 00 00 00 00 00 ...
T5970 000:264.036 - 0.377ms returns 32 (0x20)
T5970 000:264.045 JLINK_GetDebugInfo(0x102 = JLINKARM_DEBUG_INFO_MTB_ADDR_INDEX)
T5970 000:264.052   Value=0x00000000
T5970 000:264.062 - 0.017ms returns 0
T5970 000:264.069 JLINK_GetDebugInfo(0x103 = JLINKARM_DEBUG_INFO_TPIU_ADDR_INDEX)
T5970 000:264.076   Value=0x00000000
T5970 000:264.087 - 0.017ms returns 0
T5970 000:264.095 JLINK_GetDebugInfo(0x104 = JLINKARM_DEBUG_INFO_ITM_ADDR_INDEX)
T5970 000:264.105   Value=0xE0000000
T5970 000:264.115 - 0.020ms returns 0
T5970 000:264.123 JLINK_GetDebugInfo(0x105 = JLINKARM_DEBUG_INFO_DWT_ADDR_INDEX)
T5970 000:264.129   Value=0xE0001000
T5970 000:264.139 - 0.016ms returns 0
T5970 000:264.149 JLINK_GetDebugInfo(0x106 = JLINKARM_DEBUG_INFO_FPB_ADDR_INDEX)
T5970 000:264.155   Value=0xE0002000
T5970 000:264.165 - 0.016ms returns 0
T5970 000:264.173 JLINK_GetDebugInfo(0x107 = JLINKARM_DEBUG_INFO_NVIC_ADDR_INDEX)
T5970 000:264.179   Value=0xE000E000
T5970 000:264.190 - 0.017ms returns 0
T5970 000:264.198 JLINK_GetDebugInfo(0x10C = JLINKARM_DEBUG_INFO_DBG_ADDR_INDEX)
T5970 000:264.205   Value=0xE000EDF0
T5970 000:264.215 - 0.017ms returns 0
T5970 000:264.222 JLINK_GetDebugInfo(0x01 = Unknown)
T5970 000:264.229   Value=0x00000001
T5970 000:264.240 - 0.017ms returns 0
T5970 000:264.248 JLINK_ReadMemU32(0xE000ED00, 0x1 Items)
T5970 000:264.258   CPU_ReadMem(4 bytes @ 0xE000ED00)
T5970 000:264.528   Data:  72 C2 1F 41
T5970 000:264.540   Debug reg: CPUID
T5970 000:264.551 - 0.302ms returns 1 (0x1)
T5970 000:264.560 JLINK_GetDebugInfo(0x10F = JLINKARM_DEBUG_INFO_HAS_CORTEX_M_SECURITY_EXT_INDEX)
T5970 000:264.566   Value=0x00000000
T5970 000:264.576 - 0.017ms returns 0
T5970 000:264.584 JLINK_HasError()
T5970 000:264.593 JLINK_SetResetType(JLINKARM_CM3_RESET_TYPE_NORMAL)
T5970 000:264.600 - 0.007ms returns JLINKARM_CM3_RESET_TYPE_NORMAL
T5970 000:264.608 JLINK_Reset()
T5970 000:264.618   JLINK_GetResetTypeDesc
T5970 000:264.625   - 0.007ms 
T5970 000:266.729   Reset type: NORMAL (https://wiki.segger.com/J-Link_Reset_Strategies)
T5970 000:266.764   CPU is running
T5970 000:266.778   CPU_WriteMem(4 bytes @ 0xE000EDF0)
T5970 000:267.028   CPU is running
T5970 000:267.041   CPU_WriteMem(4 bytes @ 0xE000EDFC)
T5970 000:269.308   Reset: Halt core after reset via DEMCR.VC_CORERESET.
T5970 000:271.821   Reset: Reset device via AIRCR.SYSRESETREQ.
T5970 000:271.849   CPU is running
T5970 000:271.863   CPU_WriteMem(4 bytes @ 0xE000ED0C)
T5970 000:325.450   CPU_ReadMem(4 bytes @ 0xE000EDF0)
T5970 000:326.056   CPU_ReadMem(4 bytes @ 0xE000EDF0)
T5970 000:329.449   Core did not halt after reset, halting it manually.
T5970 000:329.476   CPU is running
T5970 000:329.489   CPU_WriteMem(4 bytes @ 0xE000EDF0)
T5970 000:329.735   CPU is running
T5970 000:329.761   CPU_WriteMem(4 bytes @ 0xE000EDFC)
T5970 000:335.924   CPU_ReadMem(4 bytes @ 0xE000EDF0)
T5970 000:345.670   AfterResetTarget() start
T5970 000:345.761    J-Link Script File: Executing AfterResetTarget()
T5970 000:345.799   CPU_WriteMem(4 bytes @ 0xE000EDF0)
T5970 000:396.704   CPU_WriteMem(4 bytes @ 0xE000EDF0)
T5970 000:397.371   CPU_ReadMem(4 bytes @ 0xE000EDF0)
T5970 000:406.435   Valid application detected. Setting PC / SP manually.
T5970 000:406.483   CPU_ReadMem(4 bytes @ 0x40C04008)
T5970 000:408.708   Booting from FlexSPI1.
T5970 000:408.741   CPU_ReadMem(64 bytes @ 0x30002000)
T5970 000:409.205    -- Updating C cache (64 bytes @ 0x30002000)
T5970 000:409.217    -- Read from C cache (4 bytes @ 0x30002000)
T5970 000:409.228    -- Read from C cache (4 bytes @ 0x30002004)
T5970 000:411.122     PC = 0x300026B1
T5970 000:412.900     SP = 0x2021EC18
T5970 000:421.406   Clean & invalidate cached CPU registers
T5970 000:427.201   AfterResetTarget() end - Took 75.9ms
T5970 000:427.239   CPU is running
T5970 000:427.253   CPU_WriteMem(4 bytes @ 0xE0002000)
T5970 000:427.519   CPU_ReadMem(4 bytes @ 0xE000EDFC)
T5970 000:427.738   CPU_ReadMem(4 bytes @ 0xE0001000)
T5970 000:427.928   CPU_WriteMem(4 bytes @ 0xE0001000)
T5970 000:429.315 - 164.706ms 
T5970 000:429.377 JLINK_Halt()
T5970 000:429.386 - 0.009ms returns 0x00
T5970 000:429.395 JLINK_ReadMemU32(0xE000EDF0, 0x1 Items)
T5970 000:429.407   CPU_ReadMem(4 bytes @ 0xE000EDF0)
T5970 000:429.605   Data:  03 00 03 00
T5970 000:429.617   Debug reg: DHCSR
T5970 000:429.627 - 0.232ms returns 1 (0x1)
T5970 000:429.636 JLINK_WriteU32(0xE000EDF0, 0xA05F0003)
T5970 000:429.645   Debug reg: DHCSR
T5970 000:435.933   CPU_WriteMem(4 bytes @ 0xE000EDF0)
T5970 000:436.334 - 6.697ms returns 0 (0x00000000)
T5970 000:436.348 JLINK_WriteU32(0xE000EDFC, 0x01000000)
T5970 000:436.356   Debug reg: DEMCR
T5970 000:436.371   CPU_WriteMem(4 bytes @ 0xE000EDFC)
T5970 000:436.719 - 0.370ms returns 0 (0x00000000)
T5970 000:444.866 JLINK_GetHWStatus(...)
T5970 000:445.162 - 0.295ms returns 0
T5970 000:462.158 JLINK_GetNumBPUnits(Type = 0xFFFFFF00)
T5970 000:462.195 - 0.037ms returns 0x08
T5970 000:462.203 JLINK_GetNumBPUnits(Type = 0xF0)
T5970 000:462.211 - 0.007ms returns 0x2000
T5970 000:462.219 JLINK_GetNumWPUnits()
T5970 000:462.226 - 0.006ms returns 4
T5970 000:468.750 JLINK_GetSpeed()
T5970 000:468.782 - 0.031ms returns 15000
T5970 000:472.466 JLINK_ReadMemU32(0xE000E004, 0x1 Items)
T5970 000:472.502   CPU_ReadMem(4 bytes @ 0xE000E004)
T5970 000:472.847   Data:  07 00 00 00
T5970 000:472.861 - 0.395ms returns 1 (0x1)
T5970 000:472.871 JLINK_ReadMemU32(0xE000E004, 0x1 Items)
T5970 000:472.880   CPU_ReadMem(4 bytes @ 0xE000E004)
T5970 000:473.123   Data:  07 00 00 00
T5970 000:473.134 - 0.263ms returns 1 (0x1)
T5970 000:473.143 JLINK_WriteMemEx(0xE0001000, 0x0000001C Bytes, Flags = 0x02000004)
T5970 000:473.151   Data:  01 00 00 00 00 00 00 00 00 00 00 00 00 00 00 00 ...
T5970 000:473.166   CPU_WriteMem(28 bytes @ 0xE0001000)
T5970 000:473.469 - 0.325ms returns 0x1C
T5970 000:473.481 JLINK_Halt()
T5970 000:473.489 - 0.007ms returns 0x00
T5970 000:473.497 JLINK_IsHalted()
T5970 000:473.505 - 0.007ms returns TRUE
T5970 000:480.522 JLINK_WriteMem(0x20000000, 0x7A8 Bytes, ...)
T5970 000:480.543   Data:  00 BE 0A E0 0D 78 2D 06 68 40 08 24 40 00 00 D3 ...
T5970 000:480.819   CPU_WriteMem(1960 bytes @ 0x20000000)
T5970 000:483.537 - 3.015ms returns 0x7A8
T5970 000:483.590 JLINK_HasError()
T5970 000:483.600 JLINK_WriteReg(R0, 0x30000000)
T5970 000:483.610 - 0.010ms returns 0
T5970 000:483.618 JLINK_WriteReg(R1, 0x00B71B00)
T5970 000:483.626 - 0.007ms returns 0
T5970 000:483.633 JLINK_WriteReg(R2, 0x00000001)
T5970 000:483.640 - 0.006ms returns 0
T5970 000:483.647 JLINK_WriteReg(R3, 0x00000000)
T5970 000:483.654 - 0.007ms returns 0
T5970 000:483.662 JLINK_WriteReg(R4, 0x00000000)
T5970 000:483.668 - 0.006ms returns 0
T5970 000:483.676 JLINK_WriteReg(R5, 0x00000000)
T5970 000:483.683 - 0.007ms returns 0
T5970 000:483.691 JLINK_WriteReg(R6, 0x00000000)
T5970 000:483.698 - 0.006ms returns 0
T5970 000:483.705 JLINK_WriteReg(R7, 0x00000000)
T5970 000:483.712 - 0.006ms returns 0
T5970 000:483.731 JLINK_WriteReg(R8, 0x00000000)
T5970 000:483.738 - 0.018ms returns 0
T5970 000:483.746 JLINK_WriteReg(R9, 0x200007A0)
T5970 000:483.752 - 0.006ms returns 0
T5970 000:483.760 JLINK_WriteReg(R10, 0x00000000)
T5970 000:483.767 - 0.006ms returns 0
T5970 000:483.774 JLINK_WriteReg(R11, 0x00000000)
T5970 000:483.781 - 0.006ms returns 0
T5970 000:483.788 JLINK_WriteReg(R12, 0x00000000)
T5970 000:483.795 - 0.006ms returns 0
T5970 000:483.803 JLINK_WriteReg(R13 (SP), 0x20008000)
T5970 000:483.810 - 0.007ms returns 0
T5970 000:483.817 JLINK_WriteReg(R14, 0x20000001)
T5970 000:483.824 - 0.006ms returns 0
T5970 000:483.835 JLINK_WriteReg(R15 (PC), 0x20000074)
T5970 000:483.843 - 0.011ms returns 0
T5970 000:483.851 JLINK_WriteReg(XPSR, 0x01000000)
T5970 000:483.858 - 0.007ms returns 0
T5970 000:483.865 JLINK_WriteReg(MSP, 0x20008000)
T5970 000:483.873 - 0.007ms returns 0
T5970 000:483.881 JLINK_WriteReg(PSP, 0x20008000)
T5970 000:483.888 - 0.007ms returns 0
T5970 000:483.895 JLINK_WriteReg(CFBP, 0x00000000)
T5970 000:483.902 - 0.007ms returns 0
T5970 000:483.910 JLINK_SetBPEx(Addr = 0x20000000, Type = 0xFFFFFFF2)
T5970 000:483.918 - 0.008ms returns 0x00000001
T5970 000:483.926 JLINK_Go()
T5970 000:483.936   CPU_WriteMem(4 bytes @ 0xE0002000)
T5970 000:484.213   CPU_ReadMem(4 bytes @ 0xE0001000)
T5970 000:484.433   CPU_WriteMem(4 bytes @ 0xE0002008)
T5970 000:484.446   CPU_WriteMem(4 bytes @ 0xE000200C)
T5970 000:484.457   CPU_WriteMem(4 bytes @ 0xE0002010)
T5970 000:484.504   CPU_WriteMem(4 bytes @ 0xE0002014)
T5970 000:484.514   CPU_WriteMem(4 bytes @ 0xE0002018)
T5970 000:484.524   CPU_WriteMem(4 bytes @ 0xE000201C)
T5970 000:484.534   CPU_WriteMem(4 bytes @ 0xE0002020)
T5970 000:484.545   CPU_WriteMem(4 bytes @ 0xE0002024)
T5970 000:485.377   CPU_WriteMem(4 bytes @ 0xE0001004)
T5970 000:489.219   Memory map 'after startup completion point' is active
T5970 000:489.248 - 5.321ms 
T5970 000:489.257 JLINK_IsHalted()
T5970 000:490.374 - 1.116ms returns TRUE
T5970 000:490.386 JLINK_ReadReg(R15 (PC))
T5970 000:490.394 - 0.008ms returns 0x20000000
T5970 000:490.403 JLINK_ClrBPEx(BPHandle = 0x00000001)
T5970 000:490.410 - 0.007ms returns 0x00
T5970 000:490.418 JLINK_ReadReg(R0)
T5970 000:490.426 - 0.007ms returns 0x00000000
T5970 000:490.641 JLINK_HasError()
T5970 000:490.655 JLINK_WriteReg(R0, 0x30000000)
T5970 000:490.663 - 0.008ms returns 0
T5970 000:490.671 JLINK_WriteReg(R1, 0x00001000)
T5970 000:490.678 - 0.006ms returns 0
T5970 000:490.685 JLINK_WriteReg(R2, 0x000000FF)
T5970 000:490.692 - 0.006ms returns 0
T5970 000:490.699 JLINK_WriteReg(R3, 0x00000000)
T5970 000:490.706 - 0.007ms returns 0
T5970 000:490.714 JLINK_WriteReg(R4, 0x00000000)
T5970 000:490.721 - 0.006ms returns 0
T5970 000:490.728 JLINK_WriteReg(R5, 0x00000000)
T5970 000:490.735 - 0.007ms returns 0
T5970 000:490.743 JLINK_WriteReg(R6, 0x00000000)
T5970 000:490.750 - 0.006ms returns 0
T5970 000:490.757 JLINK_WriteReg(R7, 0x00000000)
T5970 000:490.764 - 0.006ms returns 0
T5970 000:490.771 JLINK_WriteReg(R8, 0x00000000)
T5970 000:490.778 - 0.006ms returns 0
T5970 000:490.785 JLINK_WriteReg(R9, 0x200007A0)
T5970 000:490.792 - 0.006ms returns 0
T5970 000:490.799 JLINK_WriteReg(R10, 0x00000000)
T5970 000:490.806 - 0.006ms returns 0
T5970 000:490.814 JLINK_WriteReg(R11, 0x00000000)
T5970 000:490.821 - 0.007ms returns 0
T5970 000:490.829 JLINK_WriteReg(R12, 0x00000000)
T5970 000:490.836 - 0.007ms returns 0
T5970 000:490.844 JLINK_WriteReg(R13 (SP), 0x20008000)
T5970 000:490.851 - 0.007ms returns 0
T5970 000:490.858 JLINK_WriteReg(R14, 0x20000001)
T5970 000:490.865 - 0.006ms returns 0
T5970 000:490.873 JLINK_WriteReg(R15 (PC), 0x20000020)
T5970 000:490.880 - 0.007ms returns 0
T5970 000:490.888 JLINK_WriteReg(XPSR, 0x01000000)
T5970 000:490.895 - 0.007ms returns 0
T5970 000:490.902 JLINK_WriteReg(MSP, 0x20008000)
T5970 000:490.909 - 0.006ms returns 0
T5970 000:490.916 JLINK_WriteReg(PSP, 0x20008000)
T5970 000:490.923 - 0.007ms returns 0
T5970 000:490.931 JLINK_WriteReg(CFBP, 0x00000000)
T5970 000:490.938 - 0.007ms returns 0
T5970 000:490.946 JLINK_SetBPEx(Addr = 0x20000000, Type = 0xFFFFFFF2)
T5970 000:490.954 - 0.008ms returns 0x00000002
T5970 000:490.961 JLINK_Go()
T5970 000:490.971   CPU_WriteMem(4 bytes @ 0xE0002000)
T5970 000:491.265   CPU_ReadMem(4 bytes @ 0xE0001000)
T5970 000:492.607 - 1.645ms 
T5970 000:492.620 JLINK_IsHalted()
T5970 000:493.835 - 1.214ms returns TRUE
T5970 000:493.845 JLINK_ReadReg(R15 (PC))
T5970 000:493.854 - 0.008ms returns 0x20000000
T5970 000:493.861 JLINK_ClrBPEx(BPHandle = 0x00000002)
T5970 000:493.869 - 0.007ms returns 0x00
T5970 000:493.876 JLINK_ReadReg(R0)
T5970 000:493.883 - 0.007ms returns 0x00000001
T5970 000:493.892 JLINK_HasError()
T5970 000:493.900 JLINK_WriteReg(R0, 0x30000000)
T5970 000:493.907 - 0.007ms returns 0
T5970 000:493.914 JLINK_WriteReg(R1, 0x00001000)
T5970 000:493.921 - 0.006ms returns 0
T5970 000:493.929 JLINK_WriteReg(R2, 0x000000FF)
T5970 000:493.936 - 0.006ms returns 0
T5970 000:493.943 JLINK_WriteReg(R3, 0x00000000)
T5970 000:493.950 - 0.006ms returns 0
T5970 000:493.957 JLINK_WriteReg(R4, 0x00000000)
T5970 000:493.964 - 0.007ms returns 0
T5970 000:493.972 JLINK_WriteReg(R5, 0x00000000)
T5970 000:493.979 - 0.006ms returns 0
T5970 000:493.987 JLINK_WriteReg(R6, 0x00000000)
T5970 000:493.993 - 0.006ms returns 0
T5970 000:494.001 JLINK_WriteReg(R7, 0x00000000)
T5970 000:494.008 - 0.006ms returns 0
T5970 000:494.015 JLINK_WriteReg(R8, 0x00000000)
T5970 000:494.022 - 0.007ms returns 0
T5970 000:494.033 JLINK_WriteReg(R9, 0x200007A0)
T5970 000:494.040 - 0.006ms returns 0
T5970 000:494.048 JLINK_WriteReg(R10, 0x00000000)
T5970 000:494.055 - 0.007ms returns 0
T5970 000:494.062 JLINK_WriteReg(R11, 0x00000000)
T5970 000:494.069 - 0.006ms returns 0
T5970 000:494.076 JLINK_WriteReg(R12, 0x00000000)
T5970 000:494.083 - 0.006ms returns 0
T5970 000:494.090 JLINK_WriteReg(R13 (SP), 0x20008000)
T5970 000:494.097 - 0.007ms returns 0
T5970 000:494.105 JLINK_WriteReg(R14, 0x20000001)
T5970 000:494.112 - 0.006ms returns 0
T5970 000:494.120 JLINK_WriteReg(R15 (PC), 0x20000134)
T5970 000:494.127 - 0.007ms returns 0
T5970 000:494.135 JLINK_WriteReg(XPSR, 0x01000000)
T5970 000:494.143 - 0.007ms returns 0
T5970 000:494.150 JLINK_WriteReg(MSP, 0x20008000)
T5970 000:494.157 - 0.006ms returns 0
T5970 000:494.164 JLINK_WriteReg(PSP, 0x20008000)
T5970 000:494.171 - 0.006ms returns 0
T5970 000:494.179 JLINK_WriteReg(CFBP, 0x00000000)
T5970 000:494.186 - 0.006ms returns 0
T5970 000:494.193 JLINK_SetBPEx(Addr = 0x20000000, Type = 0xFFFFFFF2)
T5970 000:494.201 - 0.007ms returns 0x00000003
T5970 000:494.209 JLINK_Go()
T5970 000:494.217   CPU_WriteMem(4 bytes @ 0xE0002000)
T5970 000:494.482   CPU_ReadMem(4 bytes @ 0xE0001000)
T5970 000:496.074 - 1.865ms 
T5970 000:496.102 JLINK_IsHalted()
T5970 000:496.313 - 0.211ms returns FALSE
T5970 000:496.324 JLINK_HasError()
T5970 000:513.458 JLINK_IsHalted()
T5970 000:513.725 - 0.267ms returns FALSE
T5970 000:513.737 JLINK_HasError()
T5970 000:515.447 JLINK_IsHalted()
T5970 000:515.702 - 0.256ms returns FALSE
T5970 000:515.726 JLINK_HasError()
T5970 000:517.423 JLINK_IsHalted()
T5970 000:517.775 - 0.350ms returns FALSE
T5970 000:517.799 JLINK_HasError()
T5970 000:519.513 JLINK_IsHalted()
T5970 000:519.776 - 0.262ms returns FALSE
T5970 000:519.797 JLINK_HasError()
T5970 000:521.728 JLINK_IsHalted()
T5970 000:522.112 - 0.383ms returns FALSE
T5970 000:522.134 JLINK_HasError()
T5970 000:523.633 JLINK_IsHalted()
T5970 000:523.978 - 0.344ms returns FALSE
T5970 000:523.989 JLINK_HasError()
T5970 000:525.678 JLINK_IsHalted()
T5970 000:525.999 - 0.320ms returns FALSE
T5970 000:526.010 JLINK_HasError()
T5970 000:527.783 JLINK_IsHalted()
T5970 000:528.102 - 0.318ms returns FALSE
T5970 000:528.115 JLINK_HasError()
T5970 000:529.821 JLINK_IsHalted()
T5970 000:530.146 - 0.327ms returns FALSE
T5970 000:530.156 JLINK_HasError()
T5970 000:531.812 JLINK_IsHalted()
T5970 000:532.147 - 0.335ms returns FALSE
T5970 000:532.157 JLINK_HasError()
T5970 000:533.814 JLINK_IsHalted()
T5970 000:534.175 - 0.361ms returns FALSE
T5970 000:534.186 JLINK_HasError()
T5970 000:535.816 JLINK_IsHalted()
T5970 000:536.124 - 0.308ms returns FALSE
T5970 000:536.133 JLINK_HasError()
T5970 000:537.812 JLINK_IsHalted()
T5970 000:538.187 - 0.375ms returns FALSE
T5970 000:538.220 JLINK_HasError()
T5970 000:543.825 JLINK_IsHalted()
T5970 000:544.128 - 0.302ms returns FALSE
T5970 000:544.141 JLINK_HasError()
T5970 000:545.835 JLINK_IsHalted()
T5970 000:546.133 - 0.301ms returns FALSE
T5970 000:546.143 JLINK_HasError()
T5970 000:547.821 JLINK_IsHalted()
T5970 000:548.131 - 0.311ms returns FALSE
T5970 000:548.140 JLINK_HasError()
T5970 000:549.822 JLINK_IsHalted()
T5970 000:550.063 - 0.242ms returns FALSE
T5970 000:550.073 JLINK_HasError()
T5970 000:551.819 JLINK_IsHalted()
T5970 000:552.124 - 0.306ms returns FALSE
T5970 000:552.134 JLINK_HasError()
T5970 000:553.819 JLINK_IsHalted()
T5970 000:554.040 - 0.222ms returns FALSE
T5970 000:554.054 JLINK_HasError()
T5970 000:555.791 JLINK_IsHalted()
T5970 000:557.070 - 1.279ms returns TRUE
T5970 000:557.090 JLINK_ReadReg(R15 (PC))
T5970 000:557.102 - 0.011ms returns 0x20000000
T5970 000:557.112 JLINK_ClrBPEx(BPHandle = 0x00000003)
T5970 000:557.123 - 0.011ms returns 0x00
T5970 000:557.133 JLINK_ReadReg(R0)
T5970 000:557.142 - 0.009ms returns 0x00000000
T5970 000:557.716 JLINK_HasError()
T5970 000:557.740 JLINK_WriteReg(R0, 0x30001000)
T5970 000:557.751 - 0.011ms returns 0
T5970 000:557.764 JLINK_WriteReg(R1, 0x00001000)
T5970 000:557.776 - 0.011ms returns 0
T5970 000:557.786 JLINK_WriteReg(R2, 0x000000FF)
T5970 000:557.794 - 0.009ms returns 0
T5970 000:557.804 JLINK_WriteReg(R3, 0x00000000)
T5970 000:557.813 - 0.008ms returns 0
T5970 000:557.822 JLINK_WriteReg(R4, 0x00000000)
T5970 000:557.831 - 0.008ms returns 0
T5970 000:557.840 JLINK_WriteReg(R5, 0x00000000)
T5970 000:557.849 - 0.008ms returns 0
T5970 000:557.858 JLINK_WriteReg(R6, 0x00000000)
T5970 000:557.867 - 0.009ms returns 0
T5970 000:557.878 JLINK_WriteReg(R7, 0x00000000)
T5970 000:557.887 - 0.009ms returns 0
T5970 000:557.896 JLINK_WriteReg(R8, 0x00000000)
T5970 000:557.904 - 0.008ms returns 0
T5970 000:557.913 JLINK_WriteReg(R9, 0x200007A0)
T5970 000:557.922 - 0.008ms returns 0
T5970 000:557.931 JLINK_WriteReg(R10, 0x00000000)
T5970 000:557.939 - 0.008ms returns 0
T5970 000:557.949 JLINK_WriteReg(R11, 0x00000000)
T5970 000:557.957 - 0.008ms returns 0
T5970 000:557.966 JLINK_WriteReg(R12, 0x00000000)
T5970 000:557.974 - 0.008ms returns 0
T5970 000:557.983 JLINK_WriteReg(R13 (SP), 0x20008000)
T5970 000:557.993 - 0.009ms returns 0
T5970 000:558.002 JLINK_WriteReg(R14, 0x20000001)
T5970 000:558.011 - 0.008ms returns 0
T5970 000:558.020 JLINK_WriteReg(R15 (PC), 0x20000020)
T5970 000:558.029 - 0.008ms returns 0
T5970 000:558.038 JLINK_WriteReg(XPSR, 0x01000000)
T5970 000:558.046 - 0.008ms returns 0
T5970 000:558.056 JLINK_WriteReg(MSP, 0x20008000)
T5970 000:558.064 - 0.008ms returns 0
T5970 000:558.073 JLINK_WriteReg(PSP, 0x20008000)
T5970 000:558.081 - 0.008ms returns 0
T5970 000:558.091 JLINK_WriteReg(CFBP, 0x00000000)
T5970 000:558.099 - 0.008ms returns 0
T5970 000:558.109 JLINK_SetBPEx(Addr = 0x20000000, Type = 0xFFFFFFF2)
T5970 000:558.119 - 0.010ms returns 0x00000004
T5970 000:558.129 JLINK_Go()
T5970 000:558.144   CPU_WriteMem(4 bytes @ 0xE0002000)
T5970 000:558.408   CPU_ReadMem(4 bytes @ 0xE0001000)
T5970 000:559.850 - 1.720ms 
T5970 000:559.862 JLINK_IsHalted()
T5970 000:561.067 - 1.204ms returns TRUE
T5970 000:561.080 JLINK_ReadReg(R15 (PC))
T5970 000:561.089 - 0.009ms returns 0x20000000
T5970 000:561.099 JLINK_ClrBPEx(BPHandle = 0x00000004)
T5970 000:561.108 - 0.009ms returns 0x00
T5970 000:561.118 JLINK_ReadReg(R0)
T5970 000:561.126 - 0.008ms returns 0x00000001
T5970 000:561.137 JLINK_HasError()
T5970 000:561.147 JLINK_WriteReg(R0, 0x30001000)
T5970 000:561.156 - 0.009ms returns 0
T5970 000:561.166 JLINK_WriteReg(R1, 0x00001000)
T5970 000:561.174 - 0.008ms returns 0
T5970 000:561.183 JLINK_WriteReg(R2, 0x000000FF)
T5970 000:561.192 - 0.009ms returns 0
T5970 000:561.202 JLINK_WriteReg(R3, 0x00000000)
T5970 000:561.211 - 0.008ms returns 0
T5970 000:561.221 JLINK_WriteReg(R4, 0x00000000)
T5970 000:561.230 - 0.008ms returns 0
T5970 000:561.239 JLINK_WriteReg(R5, 0x00000000)
T5970 000:561.248 - 0.008ms returns 0
T5970 000:561.257 JLINK_WriteReg(R6, 0x00000000)
T5970 000:561.267 - 0.009ms returns 0
T5970 000:561.277 JLINK_WriteReg(R7, 0x00000000)
T5970 000:561.286 - 0.009ms returns 0
T5970 000:561.296 JLINK_WriteReg(R8, 0x00000000)
T5970 000:561.305 - 0.008ms returns 0
T5970 000:561.314 JLINK_WriteReg(R9, 0x200007A0)
T5970 000:561.323 - 0.009ms returns 0
T5970 000:561.333 JLINK_WriteReg(R10, 0x00000000)
T5970 000:561.342 - 0.009ms returns 0
T5970 000:561.351 JLINK_WriteReg(R11, 0x00000000)
T5970 000:561.360 - 0.008ms returns 0
T5970 000:561.369 JLINK_WriteReg(R12, 0x00000000)
T5970 000:561.378 - 0.008ms returns 0
T5970 000:561.388 JLINK_WriteReg(R13 (SP), 0x20008000)
T5970 000:561.398 - 0.009ms returns 0
T5970 000:561.407 JLINK_WriteReg(R14, 0x20000001)
T5970 000:561.416 - 0.008ms returns 0
T5970 000:561.426 JLINK_WriteReg(R15 (PC), 0x20000134)
T5970 000:561.435 - 0.009ms returns 0
T5970 000:561.444 JLINK_WriteReg(XPSR, 0x01000000)
T5970 000:561.454 - 0.009ms returns 0
T5970 000:561.463 JLINK_WriteReg(MSP, 0x20008000)
T5970 000:561.472 - 0.008ms returns 0
T5970 000:561.482 JLINK_WriteReg(PSP, 0x20008000)
T5970 000:561.490 - 0.008ms returns 0
T5970 000:561.503 JLINK_WriteReg(CFBP, 0x00000000)
T5970 000:561.512 - 0.009ms returns 0
T5970 000:561.522 JLINK_SetBPEx(Addr = 0x20000000, Type = 0xFFFFFFF2)
T5970 000:561.531 - 0.009ms returns 0x00000005
T5970 000:561.540 JLINK_Go()
T5970 000:561.550   CPU_WriteMem(4 bytes @ 0xE0002000)
T5970 000:561.826   CPU_ReadMem(4 bytes @ 0xE0001000)
T5970 000:563.222 - 1.681ms 
T5970 000:563.234 JLINK_IsHalted()
T5970 000:563.426 - 0.192ms returns FALSE
T5970 000:563.438 JLINK_HasError()
T5970 000:564.819 JLINK_IsHalted()
T5970 000:565.048 - 0.228ms returns FALSE
T5970 000:565.060 JLINK_HasError()
T5970 000:566.821 JLINK_IsHalted()
T5970 000:567.099 - 0.278ms returns FALSE
T5970 000:567.113 JLINK_HasError()
T5970 000:568.821 JLINK_IsHalted()
T5970 000:569.106 - 0.286ms returns FALSE
T5970 000:569.125 JLINK_HasError()
T5970 000:570.822 JLINK_IsHalted()
T5970 000:571.060 - 0.240ms returns FALSE
T5970 000:571.076 JLINK_HasError()
T5970 000:572.786 JLINK_IsHalted()
T5970 000:573.004 - 0.217ms returns FALSE
T5970 000:573.021 JLINK_HasError()
T5970 000:574.821 JLINK_IsHalted()
T5970 000:575.100 - 0.279ms returns FALSE
T5970 000:575.119 JLINK_HasError()
T5970 000:576.822 JLINK_IsHalted()
T5970 000:577.104 - 0.281ms returns FALSE
T5970 000:577.124 JLINK_HasError()
T5970 000:578.828 JLINK_IsHalted()
T5970 000:579.101 - 0.273ms returns FALSE
T5970 000:579.122 JLINK_HasError()
T5970 000:580.825 JLINK_IsHalted()
T5970 000:581.135 - 0.309ms returns FALSE
T5970 000:581.155 JLINK_HasError()
T5970 000:582.824 JLINK_IsHalted()
T5970 000:583.138 - 0.313ms returns FALSE
T5970 000:583.157 JLINK_HasError()
T5970 000:584.839 JLINK_IsHalted()
T5970 000:585.113 - 0.274ms returns FALSE
T5970 000:585.148 JLINK_HasError()
T5970 000:590.951 JLINK_IsHalted()
T5970 000:591.359 - 0.407ms returns FALSE
T5970 000:591.376 JLINK_HasError()
T5970 000:592.942 JLINK_IsHalted()
T5970 000:593.166 - 0.223ms returns FALSE
T5970 000:593.182 JLINK_HasError()
T5970 000:594.950 JLINK_IsHalted()
T5970 000:595.286 - 0.336ms returns FALSE
T5970 000:595.296 JLINK_HasError()
T5970 000:596.955 JLINK_IsHalted()
T5970 000:597.355 - 0.401ms returns FALSE
T5970 000:597.364 JLINK_HasError()
T5970 000:598.954 JLINK_IsHalted()
T5970 000:599.288 - 0.334ms returns FALSE
T5970 000:599.296 JLINK_HasError()
T5970 000:600.998 JLINK_IsHalted()
T5970 000:601.232 - 0.234ms returns FALSE
T5970 000:601.247 JLINK_HasError()
T5970 000:603.950 JLINK_IsHalted()
T5970 000:604.226 - 0.275ms returns FALSE
T5970 000:604.237 JLINK_HasError()
T5970 000:605.956 JLINK_IsHalted()
T5970 000:606.276 - 0.323ms returns FALSE
T5970 000:606.285 JLINK_HasError()
T5970 000:607.956 JLINK_IsHalted()
T5970 000:608.299 - 0.342ms returns FALSE
T5970 000:608.308 JLINK_HasError()
T5970 000:609.959 JLINK_IsHalted()
T5970 000:610.274 - 0.314ms returns FALSE
T5970 000:610.283 JLINK_HasError()
T5970 000:611.955 JLINK_IsHalted()
T5970 000:612.256 - 0.301ms returns FALSE
T5970 000:612.265 JLINK_HasError()
T5970 000:613.956 JLINK_IsHalted()
T5970 000:614.226 - 0.270ms returns FALSE
T5970 000:614.236 JLINK_HasError()
T5970 000:615.915 JLINK_IsHalted()
T5970 000:616.250 - 0.335ms returns FALSE
T5970 000:616.260 JLINK_HasError()
T5970 000:617.958 JLINK_IsHalted()
T5970 000:618.233 - 0.275ms returns FALSE
T5970 000:618.253 JLINK_HasError()
T5970 000:619.485 JLINK_IsHalted()
T5970 000:619.726 - 0.242ms returns FALSE
T5970 000:619.747 JLINK_HasError()
T5970 000:621.008 JLINK_IsHalted()
T5970 000:621.294 - 0.284ms returns FALSE
T5970 000:621.326 JLINK_HasError()
T5970 000:622.972 JLINK_IsHalted()
T5970 000:624.261 - 1.289ms returns TRUE
T5970 000:624.283 JLINK_ReadReg(R15 (PC))
T5970 000:624.302 - 0.018ms returns 0x20000000
T5970 000:624.320 JLINK_ClrBPEx(BPHandle = 0x00000005)
T5970 000:624.337 - 0.017ms returns 0x00
T5970 000:624.354 JLINK_ReadReg(R0)
T5970 000:624.370 - 0.016ms returns 0x00000000
T5970 000:625.182 JLINK_HasError()
T5970 000:625.211 JLINK_WriteReg(R0, 0x30002000)
T5970 000:625.229 - 0.017ms returns 0
T5970 000:625.245 JLINK_WriteReg(R1, 0x00001000)
T5970 000:625.326 - 0.080ms returns 0
T5970 000:625.342 JLINK_WriteReg(R2, 0x000000FF)
T5970 000:625.357 - 0.014ms returns 0
T5970 000:625.373 JLINK_WriteReg(R3, 0x00000000)
T5970 000:625.388 - 0.014ms returns 0
T5970 000:625.403 JLINK_WriteReg(R4, 0x00000000)
T5970 000:625.418 - 0.014ms returns 0
T5970 000:625.435 JLINK_WriteReg(R5, 0x00000000)
T5970 000:625.449 - 0.013ms returns 0
T5970 000:625.464 JLINK_WriteReg(R6, 0x00000000)
T5970 000:625.477 - 0.013ms returns 0
T5970 000:625.492 JLINK_WriteReg(R7, 0x00000000)
T5970 000:625.506 - 0.013ms returns 0
T5970 000:625.521 JLINK_WriteReg(R8, 0x00000000)
T5970 000:625.535 - 0.014ms returns 0
T5970 000:625.550 JLINK_WriteReg(R9, 0x200007A0)
T5970 000:625.564 - 0.013ms returns 0
T5970 000:625.580 JLINK_WriteReg(R10, 0x00000000)
T5970 000:625.593 - 0.014ms returns 0
T5970 000:625.609 JLINK_WriteReg(R11, 0x00000000)
T5970 000:625.622 - 0.013ms returns 0
T5970 000:625.637 JLINK_WriteReg(R12, 0x00000000)
T5970 000:625.652 - 0.015ms returns 0
T5970 000:625.667 JLINK_WriteReg(R13 (SP), 0x20008000)
T5970 000:625.681 - 0.014ms returns 0
T5970 000:625.696 JLINK_WriteReg(R14, 0x20000001)
T5970 000:625.709 - 0.013ms returns 0
T5970 000:625.723 JLINK_WriteReg(R15 (PC), 0x20000020)
T5970 000:625.737 - 0.014ms returns 0
T5970 000:625.751 JLINK_WriteReg(XPSR, 0x01000000)
T5970 000:625.764 - 0.013ms returns 0
T5970 000:625.779 JLINK_WriteReg(MSP, 0x20008000)
T5970 000:625.792 - 0.013ms returns 0
T5970 000:625.807 JLINK_WriteReg(PSP, 0x20008000)
T5970 000:625.820 - 0.013ms returns 0
T5970 000:625.834 JLINK_WriteReg(CFBP, 0x00000000)
T5970 000:625.847 - 0.013ms returns 0
T5970 000:625.863 JLINK_SetBPEx(Addr = 0x20000000, Type = 0xFFFFFFF2)
T5970 000:625.878 - 0.015ms returns 0x00000006
T5970 000:625.892 JLINK_Go()
T5970 000:625.913   CPU_WriteMem(4 bytes @ 0xE0002000)
T5970 000:626.306   CPU_ReadMem(4 bytes @ 0xE0001000)
T5970 000:627.910 - 2.016ms 
T5970 000:627.929 JLINK_IsHalted()
T5970 000:629.198 - 1.269ms returns TRUE
T5970 000:629.218 JLINK_ReadReg(R15 (PC))
T5970 000:629.233 - 0.014ms returns 0x20000000
T5970 000:629.248 JLINK_ClrBPEx(BPHandle = 0x00000006)
T5970 000:629.265 - 0.016ms returns 0x00
T5970 000:629.280 JLINK_ReadReg(R0)
T5970 000:629.294 - 0.014ms returns 0x00000001
T5970 000:629.311 JLINK_HasError()
T5970 000:629.326 JLINK_WriteReg(R0, 0x30002000)
T5970 000:629.341 - 0.014ms returns 0
T5970 000:629.355 JLINK_WriteReg(R1, 0x00001000)
T5970 000:629.369 - 0.013ms returns 0
T5970 000:629.384 JLINK_WriteReg(R2, 0x000000FF)
T5970 000:629.398 - 0.014ms returns 0
T5970 000:629.413 JLINK_WriteReg(R3, 0x00000000)
T5970 000:629.427 - 0.014ms returns 0
T5970 000:629.443 JLINK_WriteReg(R4, 0x00000000)
T5970 000:629.456 - 0.013ms returns 0
T5970 000:629.472 JLINK_WriteReg(R5, 0x00000000)
T5970 000:629.485 - 0.013ms returns 0
T5970 000:629.500 JLINK_WriteReg(R6, 0x00000000)
T5970 000:629.514 - 0.014ms returns 0
T5970 000:629.529 JLINK_WriteReg(R7, 0x00000000)
T5970 000:629.543 - 0.013ms returns 0
T5970 000:629.558 JLINK_WriteReg(R8, 0x00000000)
T5970 000:629.572 - 0.013ms returns 0
T5970 000:629.587 JLINK_WriteReg(R9, 0x200007A0)
T5970 000:629.601 - 0.013ms returns 0
T5970 000:629.616 JLINK_WriteReg(R10, 0x00000000)
T5970 000:629.630 - 0.013ms returns 0
T5970 000:629.644 JLINK_WriteReg(R11, 0x00000000)
T5970 000:629.658 - 0.013ms returns 0
T5970 000:629.673 JLINK_WriteReg(R12, 0x00000000)
T5970 000:629.688 - 0.015ms returns 0
T5970 000:629.702 JLINK_WriteReg(R13 (SP), 0x20008000)
T5970 000:629.716 - 0.013ms returns 0
T5970 000:629.730 JLINK_WriteReg(R14, 0x20000001)
T5970 000:629.743 - 0.013ms returns 0
T5970 000:629.758 JLINK_WriteReg(R15 (PC), 0x20000134)
T5970 000:629.771 - 0.013ms returns 0
T5970 000:629.785 JLINK_WriteReg(XPSR, 0x01000000)
T5970 000:629.798 - 0.013ms returns 0
T5970 000:629.813 JLINK_WriteReg(MSP, 0x20008000)
T5970 000:629.826 - 0.013ms returns 0
T5970 000:629.840 JLINK_WriteReg(PSP, 0x20008000)
T5970 000:629.853 - 0.013ms returns 0
T5970 000:629.870 JLINK_WriteReg(CFBP, 0x00000000)
T5970 000:629.884 - 0.014ms returns 0
T5970 000:629.899 JLINK_SetBPEx(Addr = 0x20000000, Type = 0xFFFFFFF2)
T5970 000:629.913 - 0.014ms returns 0x00000007
T5970 000:629.927 JLINK_Go()
T5970 000:629.943   CPU_WriteMem(4 bytes @ 0xE0002000)
T5970 000:630.361   CPU_ReadMem(4 bytes @ 0xE0001000)
T5970 000:631.955 - 2.027ms 
T5970 000:631.983 JLINK_IsHalted()
T5970 000:632.233 - 0.250ms returns FALSE
T5970 000:632.245 JLINK_HasError()
T5970 000:636.008 JLINK_IsHalted()
T5970 000:636.356 - 0.351ms returns FALSE
T5970 000:636.370 JLINK_HasError()
T5970 000:637.998 JLINK_IsHalted()
T5970 000:638.229 - 0.231ms returns FALSE
T5970 000:638.242 JLINK_HasError()
T5970 000:639.991 JLINK_IsHalted()
T5970 000:640.230 - 0.238ms returns FALSE
T5970 000:640.244 JLINK_HasError()
T5970 000:641.992 JLINK_IsHalted()
T5970 000:642.230 - 0.237ms returns FALSE
T5970 000:642.245 JLINK_HasError()
T5970 000:643.992 JLINK_IsHalted()
T5970 000:644.235 - 0.243ms returns FALSE
T5970 000:644.252 JLINK_HasError()
T5970 000:646.002 JLINK_IsHalted()
T5970 000:646.314 - 0.312ms returns FALSE
T5970 000:646.337 JLINK_HasError()
T5970 000:647.958 JLINK_IsHalted()
T5970 000:648.277 - 0.318ms returns FALSE
T5970 000:648.305 JLINK_HasError()
T5970 000:651.514 JLINK_IsHalted()
T5970 000:651.861 - 0.346ms returns FALSE
T5970 000:651.886 JLINK_HasError()
T5970 000:653.516 JLINK_IsHalted()
T5970 000:653.854 - 0.337ms returns FALSE
T5970 000:653.864 JLINK_HasError()
T5970 000:655.511 JLINK_IsHalted()
T5970 000:655.909 - 0.396ms returns FALSE
T5970 000:655.935 JLINK_HasError()
T5970 000:657.511 JLINK_IsHalted()
T5970 000:657.876 - 0.364ms returns FALSE
T5970 000:657.891 JLINK_HasError()
T5970 000:659.631 JLINK_IsHalted()
T5970 000:660.193 - 0.562ms returns FALSE
T5970 000:660.217 JLINK_HasError()
T5970 000:661.471 JLINK_IsHalted()
T5970 000:661.929 - 0.457ms returns FALSE
T5970 000:661.955 JLINK_HasError()
T5970 000:663.527 JLINK_IsHalted()
T5970 000:663.932 - 0.405ms returns FALSE
T5970 000:663.945 JLINK_HasError()
T5970 000:665.580 JLINK_IsHalted()
T5970 000:665.853 - 0.272ms returns FALSE
T5970 000:665.865 JLINK_HasError()
T5970 000:667.522 JLINK_IsHalted()
T5970 000:667.749 - 0.229ms returns FALSE
T5970 000:667.760 JLINK_HasError()
T5970 000:669.524 JLINK_IsHalted()
T5970 000:669.911 - 0.388ms returns FALSE
T5970 000:669.921 JLINK_HasError()
T5970 000:671.524 JLINK_IsHalted()
T5970 000:671.865 - 0.342ms returns FALSE
T5970 000:671.876 JLINK_HasError()
T5970 000:673.522 JLINK_IsHalted()
T5970 000:673.907 - 0.385ms returns FALSE
T5970 000:673.916 JLINK_HasError()
T5970 000:675.521 JLINK_IsHalted()
T5970 000:675.883 - 0.364ms returns FALSE
T5970 000:675.893 JLINK_HasError()
T5970 000:677.474 JLINK_IsHalted()
T5970 000:677.739 - 0.264ms returns FALSE
T5970 000:677.749 JLINK_HasError()
T5970 000:683.001 JLINK_IsHalted()
T5970 000:683.393 - 0.391ms returns FALSE
T5970 000:683.410 JLINK_HasError()
T5970 000:685.049 JLINK_IsHalted()
T5970 000:685.384 - 0.335ms returns FALSE
T5970 000:685.397 JLINK_HasError()
T5970 000:687.046 JLINK_IsHalted()
T5970 000:687.382 - 0.335ms returns FALSE
T5970 000:687.397 JLINK_HasError()
T5970 000:689.043 JLINK_IsHalted()
T5970 000:689.384 - 0.342ms returns FALSE
T5970 000:689.402 JLINK_HasError()
T5970 000:691.043 JLINK_IsHalted()
T5970 000:692.462 - 1.418ms returns TRUE
T5970 000:692.489 JLINK_ReadReg(R15 (PC))
T5970 000:692.500 - 0.010ms returns 0x20000000
T5970 000:692.508 JLINK_ClrBPEx(BPHandle = 0x00000007)
T5970 000:692.516 - 0.008ms returns 0x00
T5970 000:692.524 JLINK_ReadReg(R0)
T5970 000:692.531 - 0.007ms returns 0x00000000
T5970 000:694.997 JLINK_HasError()
T5970 000:695.039 JLINK_WriteReg(R0, 0x30003000)
T5970 000:695.057 - 0.017ms returns 0
T5970 000:695.073 JLINK_WriteReg(R1, 0x00001000)
T5970 000:695.087 - 0.014ms returns 0
T5970 000:695.103 JLINK_WriteReg(R2, 0x000000FF)
T5970 000:695.117 - 0.013ms returns 0
T5970 000:695.132 JLINK_WriteReg(R3, 0x00000000)
T5970 000:695.146 - 0.014ms returns 0
T5970 000:695.169 JLINK_WriteReg(R4, 0x00000000)
T5970 000:695.183 - 0.014ms returns 0
T5970 000:695.198 JLINK_WriteReg(R5, 0x00000000)
T5970 000:695.212 - 0.013ms returns 0
T5970 000:695.227 JLINK_WriteReg(R6, 0x00000000)
T5970 000:695.240 - 0.013ms returns 0
T5970 000:695.255 JLINK_WriteReg(R7, 0x00000000)
T5970 000:695.269 - 0.014ms returns 0
T5970 000:695.284 JLINK_WriteReg(R8, 0x00000000)
T5970 000:695.298 - 0.013ms returns 0
T5970 000:695.313 JLINK_WriteReg(R9, 0x200007A0)
T5970 000:695.327 - 0.014ms returns 0
T5970 000:695.343 JLINK_WriteReg(R10, 0x00000000)
T5970 000:695.357 - 0.014ms returns 0
T5970 000:695.372 JLINK_WriteReg(R11, 0x00000000)
T5970 000:695.386 - 0.013ms returns 0
T5970 000:695.401 JLINK_WriteReg(R12, 0x00000000)
T5970 000:695.414 - 0.013ms returns 0
T5970 000:695.430 JLINK_WriteReg(R13 (SP), 0x20008000)
T5970 000:695.445 - 0.015ms returns 0
T5970 000:695.460 JLINK_WriteReg(R14, 0x20000001)
T5970 000:695.475 - 0.015ms returns 0
T5970 000:695.490 JLINK_WriteReg(R15 (PC), 0x20000020)
T5970 000:695.504 - 0.013ms returns 0
T5970 000:695.522 JLINK_WriteReg(XPSR, 0x01000000)
T5970 000:695.535 - 0.012ms returns 0
T5970 000:695.549 JLINK_WriteReg(MSP, 0x20008000)
T5970 000:695.561 - 0.012ms returns 0
T5970 000:695.575 JLINK_WriteReg(PSP, 0x20008000)
T5970 000:695.587 - 0.012ms returns 0
T5970 000:695.600 JLINK_WriteReg(CFBP, 0x00000000)
T5970 000:695.613 - 0.012ms returns 0
T5970 000:695.629 JLINK_SetBPEx(Addr = 0x20000000, Type = 0xFFFFFFF2)
T5970 000:695.644 - 0.016ms returns 0x00000008
T5970 000:695.658 JLINK_Go()
T5970 000:695.678   CPU_WriteMem(4 bytes @ 0xE0002000)
T5970 000:696.211   CPU_ReadMem(4 bytes @ 0xE0001000)
T5970 000:697.669 - 2.010ms 
T5970 000:697.692 JLINK_IsHalted()
T5970 000:698.937 - 1.245ms returns TRUE
T5970 000:698.962 JLINK_ReadReg(R15 (PC))
T5970 000:698.977 - 0.015ms returns 0x20000000
T5970 000:698.992 JLINK_ClrBPEx(BPHandle = 0x00000008)
T5970 000:699.006 - 0.013ms returns 0x00
T5970 000:699.020 JLINK_ReadReg(R0)
T5970 000:699.033 - 0.013ms returns 0x00000001
T5970 000:699.048 JLINK_HasError()
T5970 000:699.063 JLINK_WriteReg(R0, 0x30003000)
T5970 000:699.076 - 0.013ms returns 0
T5970 000:699.090 JLINK_WriteReg(R1, 0x00001000)
T5970 000:699.102 - 0.012ms returns 0
T5970 000:699.116 JLINK_WriteReg(R2, 0x000000FF)
T5970 000:699.129 - 0.013ms returns 0
T5970 000:699.144 JLINK_WriteReg(R3, 0x00000000)
T5970 000:699.156 - 0.012ms returns 0
T5970 000:699.170 JLINK_WriteReg(R4, 0x00000000)
T5970 000:699.182 - 0.012ms returns 0
T5970 000:699.196 JLINK_WriteReg(R5, 0x00000000)
T5970 000:699.209 - 0.012ms returns 0
T5970 000:699.222 JLINK_WriteReg(R6, 0x00000000)
T5970 000:699.234 - 0.012ms returns 0
T5970 000:699.248 JLINK_WriteReg(R7, 0x00000000)
T5970 000:699.260 - 0.012ms returns 0
T5970 000:699.274 JLINK_WriteReg(R8, 0x00000000)
T5970 000:699.287 - 0.013ms returns 0
T5970 000:699.301 JLINK_WriteReg(R9, 0x200007A0)
T5970 000:699.314 - 0.012ms returns 0
T5970 000:699.328 JLINK_WriteReg(R10, 0x00000000)
T5970 000:699.340 - 0.012ms returns 0
T5970 000:699.354 JLINK_WriteReg(R11, 0x00000000)
T5970 000:699.367 - 0.013ms returns 0
T5970 000:699.381 JLINK_WriteReg(R12, 0x00000000)
T5970 000:699.393 - 0.012ms returns 0
T5970 000:699.408 JLINK_WriteReg(R13 (SP), 0x20008000)
T5970 000:699.420 - 0.012ms returns 0
T5970 000:699.434 JLINK_WriteReg(R14, 0x20000001)
T5970 000:699.447 - 0.012ms returns 0
T5970 000:699.460 JLINK_WriteReg(R15 (PC), 0x20000134)
T5970 000:699.472 - 0.012ms returns 0
T5970 000:699.485 JLINK_WriteReg(XPSR, 0x01000000)
T5970 000:699.498 - 0.012ms returns 0
T5970 000:699.511 JLINK_WriteReg(MSP, 0x20008000)
T5970 000:699.523 - 0.012ms returns 0
T5970 000:699.536 JLINK_WriteReg(PSP, 0x20008000)
T5970 000:699.549 - 0.012ms returns 0
T5970 000:699.562 JLINK_WriteReg(CFBP, 0x00000000)
T5970 000:699.574 - 0.012ms returns 0
T5970 000:699.587 JLINK_SetBPEx(Addr = 0x20000000, Type = 0xFFFFFFF2)
T5970 000:699.601 - 0.013ms returns 0x00000009
T5970 000:699.614 JLINK_Go()
T5970 000:699.633   CPU_WriteMem(4 bytes @ 0xE0002000)
T5970 000:699.986   CPU_ReadMem(4 bytes @ 0xE0001000)
T5970 000:701.542 - 1.928ms 
T5970 000:701.559 JLINK_IsHalted()
T5970 000:701.862 - 0.303ms returns FALSE
T5970 000:701.879 JLINK_HasError()
T5970 000:703.039 JLINK_IsHalted()
T5970 000:703.363 - 0.323ms returns FALSE
T5970 000:703.381 JLINK_HasError()
T5970 000:705.040 JLINK_IsHalted()
T5970 000:705.481 - 0.441ms returns FALSE
T5970 000:705.500 JLINK_HasError()
T5970 000:707.083 JLINK_IsHalted()
T5970 000:707.430 - 0.347ms returns FALSE
T5970 000:707.450 JLINK_HasError()
T5970 000:709.071 JLINK_IsHalted()
T5970 000:709.501 - 0.429ms returns FALSE
T5970 000:709.541 JLINK_HasError()
T5970 000:713.010 JLINK_IsHalted()
T5970 000:713.376 - 0.366ms returns FALSE
T5970 000:713.388 JLINK_HasError()
T5970 000:714.546 JLINK_IsHalted()
T5970 000:714.910 - 0.362ms returns FALSE
T5970 000:714.942 JLINK_HasError()
T5970 000:716.583 JLINK_IsHalted()
T5970 000:716.936 - 0.353ms returns FALSE
T5970 000:716.950 JLINK_HasError()
T5970 000:718.560 JLINK_IsHalted()
T5970 000:718.863 - 0.302ms returns FALSE
T5970 000:718.879 JLINK_HasError()
T5970 000:720.062 JLINK_IsHalted()
T5970 000:720.380 - 0.318ms returns FALSE
T5970 000:720.395 JLINK_HasError()
T5970 000:722.073 JLINK_IsHalted()
T5970 000:722.289 - 0.216ms returns FALSE
T5970 000:722.306 JLINK_HasError()
T5970 000:724.063 JLINK_IsHalted()
T5970 000:724.296 - 0.232ms returns FALSE
T5970 000:724.319 JLINK_HasError()
T5970 000:731.074 JLINK_IsHalted()
T5970 000:731.420 - 0.346ms returns FALSE
T5970 000:731.437 JLINK_HasError()
T5970 000:733.077 JLINK_IsHalted()
T5970 000:733.344 - 0.266ms returns FALSE
T5970 000:733.364 JLINK_HasError()
T5970 000:735.071 JLINK_IsHalted()
T5970 000:735.413 - 0.341ms returns FALSE
T5970 000:735.430 JLINK_HasError()
T5970 000:737.105 JLINK_IsHalted()
T5970 000:737.482 - 0.376ms returns FALSE
T5970 000:737.500 JLINK_HasError()
T5970 000:739.068 JLINK_IsHalted()
T5970 000:739.378 - 0.309ms returns FALSE
T5970 000:739.398 JLINK_HasError()
T5970 000:741.102 JLINK_IsHalted()
T5970 000:741.750 - 0.647ms returns FALSE
T5970 000:741.793 JLINK_HasError()
T5970 000:743.039 JLINK_IsHalted()
T5970 000:743.351 - 0.311ms returns FALSE
T5970 000:743.370 JLINK_HasError()
T5970 000:745.080 JLINK_IsHalted()
T5970 000:745.496 - 0.414ms returns FALSE
T5970 000:745.563 JLINK_HasError()
T5970 000:747.348 JLINK_IsHalted()
T5970 000:747.633 - 0.284ms returns FALSE
T5970 000:747.652 JLINK_HasError()
T5970 000:749.340 JLINK_IsHalted()
T5970 000:749.707 - 0.367ms returns FALSE
T5970 000:749.724 JLINK_HasError()
T5970 000:751.337 JLINK_IsHalted()
T5970 000:751.666 - 0.328ms returns FALSE
T5970 000:751.685 JLINK_HasError()
T5970 000:753.337 JLINK_IsHalted()
T5970 000:753.668 - 0.331ms returns FALSE
T5970 000:753.689 JLINK_HasError()
T5970 000:755.352 JLINK_IsHalted()
T5970 000:755.680 - 0.329ms returns FALSE
T5970 000:755.705 JLINK_HasError()
T5970 000:757.353 JLINK_IsHalted()
T5970 000:757.682 - 0.328ms returns FALSE
T5970 000:757.692 JLINK_HasError()
T5970 000:759.356 JLINK_IsHalted()
T5970 000:759.680 - 0.325ms returns FALSE
T5970 000:759.702 JLINK_HasError()
T5970 000:761.347 JLINK_IsHalted()
T5970 000:762.673 - 1.323ms returns TRUE
T5970 000:762.699 JLINK_ReadReg(R15 (PC))
T5970 000:762.719 - 0.019ms returns 0x20000000
T5970 000:762.736 JLINK_ClrBPEx(BPHandle = 0x00000009)
T5970 000:762.753 - 0.017ms returns 0x00
T5970 000:762.771 JLINK_ReadReg(R0)
T5970 000:762.787 - 0.016ms returns 0x00000000
T5970 000:763.607 JLINK_HasError()
T5970 000:763.641 JLINK_WriteReg(R0, 0x30004000)
T5970 000:763.661 - 0.019ms returns 0
T5970 000:763.679 JLINK_WriteReg(R1, 0x00001000)
T5970 000:763.695 - 0.016ms returns 0
T5970 000:763.712 JLINK_WriteReg(R2, 0x000000FF)
T5970 000:763.727 - 0.015ms returns 0
T5970 000:763.744 JLINK_WriteReg(R3, 0x00000000)
T5970 000:763.760 - 0.015ms returns 0
T5970 000:763.776 JLINK_WriteReg(R4, 0x00000000)
T5970 000:763.792 - 0.015ms returns 0
T5970 000:763.808 JLINK_WriteReg(R5, 0x00000000)
T5970 000:763.831 - 0.022ms returns 0
T5970 000:763.847 JLINK_WriteReg(R6, 0x00000000)
T5970 000:763.862 - 0.015ms returns 0
T5970 000:763.879 JLINK_WriteReg(R7, 0x00000000)
T5970 000:763.894 - 0.015ms returns 0
T5970 000:763.911 JLINK_WriteReg(R8, 0x00000000)
T5970 000:763.926 - 0.015ms returns 0
T5970 000:763.943 JLINK_WriteReg(R9, 0x200007A0)
T5970 000:763.958 - 0.015ms returns 0
T5970 000:763.975 JLINK_WriteReg(R10, 0x00000000)
T5970 000:763.992 - 0.017ms returns 0
T5970 000:764.009 JLINK_WriteReg(R11, 0x00000000)
T5970 000:764.024 - 0.015ms returns 0
T5970 000:764.040 JLINK_WriteReg(R12, 0x00000000)
T5970 000:764.056 - 0.015ms returns 0
T5970 000:764.073 JLINK_WriteReg(R13 (SP), 0x20008000)
T5970 000:764.089 - 0.016ms returns 0
T5970 000:764.106 JLINK_WriteReg(R14, 0x20000001)
T5970 000:764.122 - 0.015ms returns 0
T5970 000:764.139 JLINK_WriteReg(R15 (PC), 0x20000020)
T5970 000:764.154 - 0.015ms returns 0
T5970 000:764.171 JLINK_WriteReg(XPSR, 0x01000000)
T5970 000:764.186 - 0.015ms returns 0
T5970 000:764.202 JLINK_WriteReg(MSP, 0x20008000)
T5970 000:764.217 - 0.015ms returns 0
T5970 000:764.235 JLINK_WriteReg(PSP, 0x20008000)
T5970 000:764.250 - 0.014ms returns 0
T5970 000:764.265 JLINK_WriteReg(CFBP, 0x00000000)
T5970 000:764.280 - 0.014ms returns 0
T5970 000:764.296 JLINK_SetBPEx(Addr = 0x20000000, Type = 0xFFFFFFF2)
T5970 000:764.313 - 0.017ms returns 0x0000000A
T5970 000:764.329 JLINK_Go()
T5970 000:764.352   CPU_WriteMem(4 bytes @ 0xE0002000)
T5970 000:764.725   CPU_ReadMem(4 bytes @ 0xE0001000)
T5970 000:766.373 - 2.043ms 
T5970 000:766.394 JLINK_IsHalted()
T5970 000:767.685 - 1.291ms returns TRUE
T5970 000:767.706 JLINK_ReadReg(R15 (PC))
T5970 000:767.722 - 0.016ms returns 0x20000000
T5970 000:767.739 JLINK_ClrBPEx(BPHandle = 0x0000000A)
T5970 000:767.754 - 0.015ms returns 0x00
T5970 000:767.770 JLINK_ReadReg(R0)
